! SIEMENS Discrete & RF Semiconductors
! BFP420
! Si NPN RF SIEGET Grounded Emitter Transistor in SOT343
! VCE = 2 V     IC = 10 mA     
! Common Emitter S-Parameters:                     February  1998
# GHz  S  MA  R  50
!  f         S11            S21            S12            S22
! GHz     MAG   ANG      MAG   ANG      MAG   ANG      MAG   ANG
 0.010  0.6441   -1.8  25.293  178.6  0.0011   88.8  0.9771   -0.8
 0.020  0.6491   -3.5  24.974  177.6  0.0016   71.2  0.9750   -1.7
 0.050  0.6441   -8.2  25.032  173.7  0.0042   82.3  0.9764   -4.6
 0.100  0.6369  -16.8  24.742  168.5  0.0083   83.4  0.9661   -9.3
 0.150  0.6339  -25.7  24.387  162.7  0.0124   77.4  0.9520  -13.9
 0.200  0.6221  -33.4  23.612  157.3  0.0160   75.2  0.9300  -18.2
 0.250  0.6067  -41.1  22.974  152.4  0.0188   73.3  0.9034  -22.6
 0.300  0.5965  -49.1  22.357  147.3  0.0225   69.6  0.8765  -26.2
 0.400  0.5665  -63.1  20.590  137.9  0.0279   64.3  0.8141  -33.4
 0.500  0.5347  -75.6  18.728  130.0  0.0324   60.5  0.7485  -39.2
 0.600  0.5165  -87.0  17.249  122.8  0.0363   56.9  0.6899  -44.0
 0.700  0.4940  -97.1  15.723  117.2  0.0396   54.5  0.6391  -48.3
 0.800  0.4743 -106.9  14.420  111.7  0.0428   52.5  0.5895  -52.4
 0.900  0.4630 -115.1  13.277  107.1  0.0449   51.4  0.5410  -55.4
 1.000  0.4563 -122.9  12.299  103.0  0.0475   49.7  0.5052  -57.8
 1.100  0.4464 -130.3  11.365   99.0  0.0497   48.8  0.4775  -60.7
 1.200  0.4427 -136.7  10.517   95.4  0.0522   48.4  0.4460  -63.9
 1.300  0.4355 -142.4   9.812   92.4  0.0547   48.0  0.4120  -65.9
 1.400  0.4348 -147.6   9.172   89.5  0.0566   47.5  0.3905  -67.1
 1.500  0.4321 -152.7   8.635   86.2  0.0584   47.1  0.3754  -69.4
 1.600  0.4344 -158.0   8.142   83.6  0.0608   46.8  0.3543  -72.5
 1.700  0.4346 -161.8   7.700   81.1  0.0633   46.3  0.3278  -74.1
 1.800  0.4352 -165.8   7.286   78.6  0.0655   45.9  0.3140  -74.4
 1.900  0.4398 -169.9   6.914   76.4  0.0679   45.7  0.3066  -76.6
 2.000  0.4390 -173.2   6.590   74.1  0.0698   45.1  0.2912  -79.9
 2.200  0.4440  179.8   6.026   70.0  0.0751   44.6  0.2594  -81.2
 2.400  0.4446  173.1   5.520   66.0  0.0793   44.0  0.2462  -87.5
 2.600  0.4524  167.6   5.081   62.0  0.0843   43.0  0.2163  -88.5
 2.800  0.4607  162.3   4.743   58.3  0.0889   41.7  0.2107  -96.1
 3.000  0.4671  157.3   4.422   54.4  0.0937   40.3  0.1806  -97.7
 3.500  0.4929  144.5   3.776   45.7  0.1054   36.8  0.1608 -112.1
 4.000  0.5176  134.9   3.275   37.5  0.1167   33.6  0.1490 -136.4
 4.500  0.5508  125.9   2.874   29.7  0.1284   29.3  0.1375 -162.2
 5.000  0.5762  119.1   2.576   22.3  0.1383   25.2  0.1259 -177.7
 5.500  0.6010  112.8   2.330   15.0  0.1481   21.4  0.1444  174.2
 6.000  0.6090  106.9   2.118    7.7  0.1571   16.8  0.1729  157.6
! 
!  f       Fmin   Gammaopt  rn/50
! GHz       dB    MAG  ANG    -
 0.450      1.05  0.03   34   0.17
 0.900      1.08  0.01   25   0.13
 1.800      1.19  0.09 -160   0.12
 2.400      1.29  0.11 -179   0.13
 3.000      1.39  0.19 -152   0.14
 4.000      1.51  0.34 -127   0.16
!
! SIEMENS AG  Semiconductor Group, Munich
