! 
! Export of Touchstone Data from mwave.py Module Author: S.F. Peik 
! 
!Touchstone file created by python mwave 
!---------------------------------------------------------------------
! symbol freq-unit parameter-type data-format keyword impedance-ohm
#        HZ        S              RI          R       50
!---------------------------------------------------------------------
! freq       reS11      imS11       reS21       imS21       reS12       imS12       reS22       imS22
 1000000.0 -0.000001837 -0.000873322  0.999997408 -0.002102922  0.999997408 -0.002102922 -0.000001837 -0.000873322 
 2000000.0 -0.000007346 -0.001746625  0.999989630 -0.004205826  0.999989630 -0.004205826 -0.000007346 -0.001746625 
 3000000.0 -0.000016528 -0.002619890  0.999976668 -0.006308695  0.999976668 -0.006308695 -0.000016528 -0.002619890 
 4000000.0 -0.000029383 -0.003493099  0.999958521 -0.008411511  0.999958521 -0.008411511 -0.000029383 -0.003493099 
 5000000.0 -0.000045911 -0.004366233  0.999935190 -0.010514255  0.999935190 -0.010514255 -0.000045911 -0.004366233 
 6000000.0 -0.000066110 -0.005239272  0.999906675 -0.012616911  0.999906675 -0.012616911 -0.000066110 -0.005239272 
 7000000.0 -0.000089980 -0.006112199  0.999872977 -0.014719461  0.999872977 -0.014719461 -0.000089980 -0.006112199 
 8000000.0 -0.000117520 -0.006984994  0.999834096 -0.016821886  0.999834096 -0.016821886 -0.000117520 -0.006984994 
 9000000.0 -0.000148731 -0.007857638  0.999790034 -0.018924169  0.999790034 -0.018924169 -0.000148731 -0.007857638 
10000000.0 -0.000183610 -0.008730113  0.999740790 -0.021026293  0.999740790 -0.021026293 -0.000183610 -0.008730113 
11000000.0 -0.000222156 -0.009602400  0.999686365 -0.023128240  0.999686365 -0.023128240 -0.000222156 -0.009602400 
12000000.0 -0.000264370 -0.010474480  0.999626762 -0.025229991  0.999626762 -0.025229991 -0.000264370 -0.010474480 
13000000.0 -0.000310249 -0.011346334  0.999561980 -0.027331530  0.999561980 -0.027331530 -0.000310249 -0.011346334 
14000000.0 -0.000359792 -0.012217944  0.999492021 -0.029432838  0.999492021 -0.029432838 -0.000359792 -0.012217944 
15000000.0 -0.000412997 -0.013089291  0.999416887 -0.031533898  0.999416887 -0.031533898 -0.000412997 -0.013089291 
16000000.0 -0.000469864 -0.013960355  0.999336578 -0.033634692  0.999336578 -0.033634692 -0.000469864 -0.013960355 
17000000.0 -0.000530390 -0.014831119  0.999251095 -0.035735203  0.999251095 -0.035735203 -0.000530390 -0.014831119 
18000000.0 -0.000594574 -0.015701564  0.999160442 -0.037835413  0.999160442 -0.037835413 -0.000594574 -0.015701564 
19000000.0 -0.000662414 -0.016571670  0.999064619 -0.039935304  0.999064619 -0.039935304 -0.000662414 -0.016571670 
20000000.0 -0.000733908 -0.017441420  0.998963627 -0.042034859  0.998963627 -0.042034859 -0.000733908 -0.017441420 
21000000.0 -0.000809054 -0.018310793  0.998857470 -0.044134060  0.998857470 -0.044134060 -0.000809054 -0.018310793 
22000000.0 -0.000887850 -0.019179773  0.998746148 -0.046232889  0.998746148 -0.046232889 -0.000887850 -0.019179773 
23000000.0 -0.000970293 -0.020048340  0.998629664 -0.048331329  0.998629664 -0.048331329 -0.000970293 -0.020048340 
24000000.0 -0.001056381 -0.020916475  0.998508019 -0.050429362  0.998508019 -0.050429362 -0.001056381 -0.020916475 
25000000.0 -0.001146111 -0.021784160  0.998381217 -0.052526971  0.998381217 -0.052526971 -0.001146111 -0.021784160 
26000000.0 -0.001239482 -0.022651377  0.998249259 -0.054624138  0.998249259 -0.054624138 -0.001239482 -0.022651377 
27000000.0 -0.001336490 -0.023518106  0.998112147 -0.056720845  0.998112147 -0.056720845 -0.001336490 -0.023518106 
28000000.0 -0.001437132 -0.024384329  0.997969885 -0.058817076  0.997969885 -0.058817076 -0.001437132 -0.024384329 
29000000.0 -0.001541407 -0.025250027  0.997822474 -0.060912812  0.997822474 -0.060912812 -0.001541407 -0.025250027 
30000000.0 -0.001649309 -0.026115182  0.997669918 -0.063008037  0.997669918 -0.063008037 -0.001649309 -0.026115182 
31000000.0 -0.001760838 -0.026979776  0.997512218 -0.065102732  0.997512218 -0.065102732 -0.001760838 -0.026979776 
32000000.0 -0.001875988 -0.027843790  0.997349379 -0.067196881  0.997349379 -0.067196881 -0.001875988 -0.027843790 
33000000.0 -0.001994758 -0.028707205  0.997181402 -0.069290465  0.997181402 -0.069290465 -0.001994758 -0.028707205 
34000000.0 -0.002117143 -0.029570003  0.997008291 -0.071383468  0.997008291 -0.071383468 -0.002117143 -0.029570003 
35000000.0 -0.002243141 -0.030432166  0.996830050 -0.073475872  0.996830050 -0.073475872 -0.002243141 -0.030432166 
36000000.0 -0.002372746 -0.031293675  0.996646680 -0.075567660  0.996646680 -0.075567660 -0.002372746 -0.031293675 
37000000.0 -0.002505957 -0.032154512  0.996458186 -0.077658814  0.996458186 -0.077658814 -0.002505957 -0.032154512 
38000000.0 -0.002642768 -0.033014658  0.996264571 -0.079749317  0.996264571 -0.079749317 -0.002642768 -0.033014658 
39000000.0 -0.002783177 -0.033874095  0.996065838 -0.081839152  0.996065838 -0.081839152 -0.002783177 -0.033874095 
40000000.0 -0.002927178 -0.034732805  0.995861990 -0.083928302  0.995861990 -0.083928302 -0.002927178 -0.034732805 
41000000.0 -0.003074768 -0.035590769  0.995653033 -0.086016749  0.995653033 -0.086016749 -0.003074768 -0.035590769 
42000000.0 -0.003225943 -0.036447969  0.995438969 -0.088104476  0.995438969 -0.088104476 -0.003225943 -0.036447969 
43000000.0 -0.003380698 -0.037304388  0.995219801 -0.090191467  0.995219801 -0.090191467 -0.003380698 -0.037304388 
44000000.0 -0.003539029 -0.038160006  0.994995535 -0.092277703  0.994995535 -0.092277703 -0.003539029 -0.038160006 
45000000.0 -0.003700931 -0.039014806  0.994766174 -0.094363168  0.994766174 -0.094363168 -0.003700931 -0.039014806 
46000000.0 -0.003866399 -0.039868770  0.994531722 -0.096447845  0.994531722 -0.096447845 -0.003866399 -0.039868770 
47000000.0 -0.004035430 -0.040721879  0.994292183 -0.098531716  0.994292183 -0.098531716 -0.004035430 -0.040721879 
48000000.0 -0.004208018 -0.041574115  0.994047562 -0.100614765  0.994047562 -0.100614765 -0.004208018 -0.041574115 
49000000.0 -0.004384158 -0.042425460  0.993797862 -0.102696975  0.993797862 -0.102696975 -0.004384158 -0.042425460 
50000000.0 -0.004563844 -0.043275897  0.993543089 -0.104778328  0.993543089 -0.104778328 -0.004563844 -0.043275897 
51000000.0 -0.004747073 -0.044125407  0.993283247 -0.106858808  0.993283247 -0.106858808 -0.004747073 -0.044125407 
52000000.0 -0.004933839 -0.044973972  0.993018340 -0.108938398  0.993018340 -0.108938398 -0.004933839 -0.044973972 
53000000.0 -0.005124136 -0.045821575  0.992748374 -0.111017081  0.992748374 -0.111017081 -0.005124136 -0.045821575 
54000000.0 -0.005317959 -0.046668197  0.992473353 -0.113094840  0.992473353 -0.113094840 -0.005317959 -0.046668197 
55000000.0 -0.005515302 -0.047513821  0.992193281 -0.115171658  0.992193281 -0.115171658 -0.005515302 -0.047513821 
56000000.0 -0.005716160 -0.048358429  0.991908165 -0.117247519  0.991908165 -0.117247519 -0.005716160 -0.048358429 
57000000.0 -0.005920527 -0.049202003  0.991618008 -0.119322406  0.991618008 -0.119322406 -0.005920527 -0.049202003 
58000000.0 -0.006128398 -0.050044526  0.991322816 -0.121396302  0.991322816 -0.121396302 -0.006128398 -0.050044526 
59000000.0 -0.006339765 -0.050885979  0.991022595 -0.123469190  0.991022595 -0.123469190 -0.006339765 -0.050885979 
60000000.0 -0.006554624 -0.051726346  0.990717349 -0.125541055  0.990717349 -0.125541055 -0.006554624 -0.051726346 
61000000.0 -0.006772968 -0.052565607  0.990407084 -0.127611878  0.990407084 -0.127611878 -0.006772968 -0.052565607 
62000000.0 -0.006994792 -0.053403747  0.990091806 -0.129681645  0.990091806 -0.129681645 -0.006994792 -0.053403747 
63000000.0 -0.007220087 -0.054240747  0.989771519 -0.131750338  0.989771519 -0.131750338 -0.007220087 -0.054240747 
64000000.0 -0.007448849 -0.055076590  0.989446230 -0.133817940  0.989446230 -0.133817940 -0.007448849 -0.055076590 
65000000.0 -0.007681071 -0.055911259  0.989115945 -0.135884437  0.989115945 -0.135884437 -0.007681071 -0.055911259 
66000000.0 -0.007916746 -0.056744736  0.988780668 -0.137949810  0.988780668 -0.137949810 -0.007916746 -0.056744736 
67000000.0 -0.008155867 -0.057577003  0.988440407 -0.140014044  0.988440407 -0.140014044 -0.008155867 -0.057577003 
68000000.0 -0.008398429 -0.058408043  0.988095167 -0.142077122  0.988095167 -0.142077122 -0.008398429 -0.058408043 
69000000.0 -0.008644423 -0.059237840  0.987744953 -0.144139028  0.987744953 -0.144139028 -0.008644423 -0.059237840 
70000000.0 -0.008893842 -0.060066376  0.987389773 -0.146199747  0.987389773 -0.146199747 -0.008893842 -0.060066376 
71000000.0 -0.009146681 -0.060893633  0.987029632 -0.148259261  0.987029632 -0.148259261 -0.009146681 -0.060893633 
72000000.0 -0.009402931 -0.061719595  0.986664537 -0.150317555  0.986664537 -0.150317555 -0.009402931 -0.061719595 
73000000.0 -0.009662586 -0.062544245  0.986294494 -0.152374613  0.986294494 -0.152374613 -0.009662586 -0.062544245 
74000000.0 -0.009925637 -0.063367565  0.985919510 -0.154430418  0.985919510 -0.154430418 -0.009925637 -0.063367565 
75000000.0 -0.010192079 -0.064189538  0.985539590 -0.156484954  0.985539590 -0.156484954 -0.010192079 -0.064189538 
76000000.0 -0.010461902 -0.065010148  0.985154742 -0.158538207  0.985154742 -0.158538207 -0.010461902 -0.065010148 
77000000.0 -0.010735100 -0.065829377  0.984764973 -0.160590159  0.984764973 -0.160590159 -0.010735100 -0.065829377 
78000000.0 -0.011011664 -0.066647210  0.984370288 -0.162640795  0.984370288 -0.162640795 -0.011011664 -0.066647210 
79000000.0 -0.011291588 -0.067463628  0.983970696 -0.164690099  0.983970696 -0.164690099 -0.011291588 -0.067463628 
80000000.0 -0.011574863 -0.068278615  0.983566202 -0.166738056  0.983566202 -0.166738056 -0.011574863 -0.068278615 
81000000.0 -0.011861480 -0.069092156  0.983156814 -0.168784649  0.983156814 -0.168784649 -0.011861480 -0.069092156 
82000000.0 -0.012151433 -0.069904232  0.982742539 -0.170829864  0.982742539 -0.170829864 -0.012151433 -0.069904232 
83000000.0 -0.012444713 -0.070714827  0.982323385 -0.172873683  0.982323385 -0.172873683 -0.012444713 -0.070714827 
84000000.0 -0.012741311 -0.071523925  0.981899357 -0.174916093  0.981899357 -0.174916093 -0.012741311 -0.071523925 
85000000.0 -0.013041220 -0.072331509  0.981470464 -0.176957077  0.981470464 -0.176957077 -0.013041220 -0.072331509 
86000000.0 -0.013344431 -0.073137564  0.981036713 -0.178996620  0.981036713 -0.178996620 -0.013344431 -0.073137564 
87000000.0 -0.013650935 -0.073942071  0.980598112 -0.181034707  0.980598112 -0.181034707 -0.013650935 -0.073942071 
88000000.0 -0.013960724 -0.074745016  0.980154667 -0.183071322  0.980154667 -0.183071322 -0.013960724 -0.074745016 
89000000.0 -0.014273789 -0.075546382  0.979706387 -0.185106450  0.979706387 -0.185106450 -0.014273789 -0.075546382 
90000000.0 -0.014590122 -0.076346153  0.979253280 -0.187140075  0.979253280 -0.187140075 -0.014590122 -0.076346153 
91000000.0 -0.014909713 -0.077144312  0.978795352 -0.189172183  0.978795352 -0.189172183 -0.014909713 -0.077144312 
92000000.0 -0.015232554 -0.077940843  0.978332612 -0.191202759  0.978332612 -0.191202759 -0.015232554 -0.077940843 
93000000.0 -0.015558635 -0.078735731  0.977865067 -0.193231787  0.977865067 -0.193231787 -0.015558635 -0.078735731 
94000000.0 -0.015887948 -0.079528960  0.977392727 -0.195259252  0.977392727 -0.195259252 -0.015887948 -0.079528960 
95000000.0 -0.016220484 -0.080320513  0.976915598 -0.197285139  0.976915598 -0.197285139 -0.016220484 -0.080320513 
96000000.0 -0.016556232 -0.081110374  0.976433688 -0.199309434  0.976433688 -0.199309434 -0.016556232 -0.081110374 
97000000.0 -0.016895184 -0.081898529  0.975947007 -0.201332122  0.975947007 -0.201332122 -0.016895184 -0.081898529 
98000000.0 -0.017237331 -0.082684961  0.975455562 -0.203353187  0.975455562 -0.203353187 -0.017237331 -0.082684961 
99000000.0 -0.017582662 -0.083469654  0.974959361 -0.205372616  0.974959361 -0.205372616 -0.017582662 -0.083469654 
100000000.0 -0.017931169 -0.084252593  0.974458413 -0.207390393  0.974458413 -0.207390393 -0.017931169 -0.084252593 
101000000.0 -0.018282841 -0.085033762  0.973952726 -0.209406504  0.973952726 -0.209406504 -0.018282841 -0.085033762 
102000000.0 -0.018637669 -0.085813146  0.973442310 -0.211420934  0.973442310 -0.211420934 -0.018637669 -0.085813146 
103000000.0 -0.018995643 -0.086590729  0.972927171 -0.213433669  0.972927171 -0.213433669 -0.018995643 -0.086590729 
104000000.0 -0.019356753 -0.087366496  0.972407320 -0.215444694  0.972407320 -0.215444694 -0.019356753 -0.087366496 
105000000.0 -0.019720989 -0.088140432  0.971882764 -0.217453995  0.971882764 -0.217453995 -0.019720989 -0.088140432 
106000000.0 -0.020088341 -0.088912521  0.971353513 -0.219461558  0.971353513 -0.219461558 -0.020088341 -0.088912521 
107000000.0 -0.020458799 -0.089682749  0.970819575 -0.221467369  0.970819575 -0.221467369 -0.020458799 -0.089682749 
108000000.0 -0.020832352 -0.090451099  0.970280959 -0.223471412  0.970280959 -0.223471412 -0.020832352 -0.090451099 
109000000.0 -0.021208991 -0.091217558  0.969737675 -0.225473675  0.969737675 -0.225473675 -0.021208991 -0.091217558 
110000000.0 -0.021588705 -0.091982109  0.969189731 -0.227474142  0.969189731 -0.227474142 -0.021588705 -0.091982109 
111000000.0 -0.021971484 -0.092744739  0.968637136 -0.229472801  0.968637136 -0.229472801 -0.021971484 -0.092744739 
112000000.0 -0.022357316 -0.093505432  0.968079900 -0.231469636  0.968079900 -0.231469636 -0.022357316 -0.093505432 
113000000.0 -0.022746192 -0.094264174  0.967518031 -0.233464635  0.967518031 -0.233464635 -0.022746192 -0.094264174 
114000000.0 -0.023138101 -0.095020949  0.966951539 -0.235457783  0.966951539 -0.235457783 -0.023138101 -0.095020949 
115000000.0 -0.023533031 -0.095775744  0.966380434 -0.237449067  0.966380434 -0.237449067 -0.023533031 -0.095775744 
116000000.0 -0.023930973 -0.096528542  0.965804725 -0.239438473  0.965804725 -0.239438473 -0.023930973 -0.096528542 
117000000.0 -0.024331915 -0.097279331  0.965224421 -0.241425987  0.965224421 -0.241425987 -0.024331915 -0.097279331 
118000000.0 -0.024735846 -0.098028096  0.964639531 -0.243411596  0.964639531 -0.243411596 -0.024735846 -0.098028096 
119000000.0 -0.025142756 -0.098774821  0.964050066 -0.245395286  0.964050066 -0.245395286 -0.025142756 -0.098774821 
120000000.0 -0.025552633 -0.099519494  0.963456035 -0.247377044  0.963456035 -0.247377044 -0.025552633 -0.099519494 
121000000.0 -0.025965465 -0.100262099  0.962857448 -0.249356856  0.962857448 -0.249356856 -0.025965465 -0.100262099 
122000000.0 -0.026381243 -0.101002622  0.962254313 -0.251334710  0.962254313 -0.251334710 -0.026381243 -0.101002622 
123000000.0 -0.026799954 -0.101741050  0.961646643 -0.253310592  0.961646643 -0.253310592 -0.026799954 -0.101741050 
124000000.0 -0.027221587 -0.102477368  0.961034445 -0.255284488  0.961034445 -0.255284488 -0.027221587 -0.102477368 
125000000.0 -0.027646130 -0.103211563  0.960417730 -0.257256386  0.960417730 -0.257256386 -0.027646130 -0.103211563 
126000000.0 -0.028073573 -0.103943620  0.959796509 -0.259226273  0.959796509 -0.259226273 -0.028073573 -0.103943620 
127000000.0 -0.028503903 -0.104673525  0.959170790 -0.261194136  0.959170790 -0.261194136 -0.028503903 -0.104673525 
128000000.0 -0.028937109 -0.105401266  0.958540584 -0.263159961  0.958540584 -0.263159961 -0.028937109 -0.105401266 
129000000.0 -0.029373179 -0.106126828  0.957905902 -0.265123736  0.957905902 -0.265123736 -0.029373179 -0.106126828 
130000000.0 -0.029812101 -0.106850197  0.957266753 -0.267085449  0.957266753 -0.267085449 -0.029812101 -0.106850197 
131000000.0 -0.030253863 -0.107571360  0.956623148 -0.269045087  0.956623148 -0.269045087 -0.030253863 -0.107571360 
132000000.0 -0.030698454 -0.108290304  0.955975097 -0.271002636  0.955975097 -0.271002636 -0.030698454 -0.108290304 
133000000.0 -0.031145862 -0.109007015  0.955322610 -0.272958085  0.955322610 -0.272958085 -0.031145862 -0.109007015 
134000000.0 -0.031596074 -0.109721481  0.954665698 -0.274911421  0.954665698 -0.274911421 -0.031596074 -0.109721481 
135000000.0 -0.032049079 -0.110433686  0.954004371 -0.276862631  0.954004371 -0.276862631 -0.032049079 -0.110433686 
136000000.0 -0.032504863 -0.111143620  0.953338640 -0.278811704  0.953338640 -0.278811704 -0.032504863 -0.111143620 
137000000.0 -0.032963416 -0.111851268  0.952668516 -0.280758627  0.952668516 -0.280758627 -0.032963416 -0.111851268 
138000000.0 -0.033424724 -0.112556617  0.951994008 -0.282703388  0.951994008 -0.282703388 -0.033424724 -0.112556617 
139000000.0 -0.033888776 -0.113259655  0.951315127 -0.284645974  0.951315127 -0.284645974 -0.033888776 -0.113259655 
140000000.0 -0.034355558 -0.113960369  0.950631885 -0.286586374  0.950631885 -0.286586374 -0.034355558 -0.113960369 
141000000.0 -0.034825059 -0.114658745  0.949944291 -0.288524576  0.949944291 -0.288524576 -0.034825059 -0.114658745 
142000000.0 -0.035297266 -0.115354772  0.949252358 -0.290460567  0.949252358 -0.290460567 -0.035297266 -0.115354772 
143000000.0 -0.035772165 -0.116048436  0.948556094 -0.292394337  0.948556094 -0.292394337 -0.035772165 -0.116048436 
144000000.0 -0.036249746 -0.116739726  0.947855513 -0.294325873  0.947855513 -0.294325873 -0.036249746 -0.116739726 
145000000.0 -0.036729995 -0.117428627  0.947150623 -0.296255163  0.947150623 -0.296255163 -0.036729995 -0.117428627 
146000000.0 -0.037212898 -0.118115129  0.946441437 -0.298182197  0.946441437 -0.298182197 -0.037212898 -0.118115129 
147000000.0 -0.037698444 -0.118799219  0.945727965 -0.300106962  0.945727965 -0.300106962 -0.037698444 -0.118799219 
148000000.0 -0.038186619 -0.119480885  0.945010219 -0.302029446  0.945010219 -0.302029446 -0.038186619 -0.119480885 
149000000.0 -0.038677411 -0.120160114  0.944288209 -0.303949640  0.944288209 -0.303949640 -0.038677411 -0.120160114 
150000000.0 -0.039170806 -0.120836894  0.943561946 -0.305867530  0.943561946 -0.305867530 -0.039170806 -0.120836894 
151000000.0 -0.039666792 -0.121511214  0.942831443 -0.307783107  0.942831443 -0.307783107 -0.039666792 -0.121511214 
152000000.0 -0.040165355 -0.122183061  0.942096709 -0.309696359  0.942096709 -0.309696359 -0.040165355 -0.122183061 
153000000.0 -0.040666482 -0.122852423  0.941357757 -0.311607274  0.941357757 -0.311607274 -0.040666482 -0.122852423 
154000000.0 -0.041170161 -0.123519290  0.940614597 -0.313515842  0.940614597 -0.313515842 -0.041170161 -0.123519290 
155000000.0 -0.041676377 -0.124183648  0.939867241 -0.315422053  0.939867241 -0.315422053 -0.041676377 -0.124183648 
156000000.0 -0.042185117 -0.124845487  0.939115700 -0.317325894  0.939115700 -0.317325894 -0.042185117 -0.124845487 
157000000.0 -0.042696369 -0.125504796  0.938359985 -0.319227355  0.938359985 -0.319227355 -0.042696369 -0.125504796 
158000000.0 -0.043210118 -0.126161561  0.937600109 -0.321126426  0.937600109 -0.321126426 -0.043210118 -0.126161561 
159000000.0 -0.043726351 -0.126815773  0.936836083 -0.323023095  0.936836083 -0.323023095 -0.043726351 -0.126815773 
160000000.0 -0.044245055 -0.127467420  0.936067917 -0.324917353  0.936067917 -0.324917353 -0.044245055 -0.127467420 
161000000.0 -0.044766216 -0.128116490  0.935295624 -0.326809189  0.935295624 -0.326809189 -0.044766216 -0.128116490 
162000000.0 -0.045289821 -0.128762973  0.934519216 -0.328698592  0.934519216 -0.328698592 -0.045289821 -0.128762973 
163000000.0 -0.045815856 -0.129406858  0.933738703 -0.330585552  0.933738703 -0.330585552 -0.045815856 -0.129406858 
164000000.0 -0.046344306 -0.130048133  0.932954097 -0.332470059  0.932954097 -0.332470059 -0.046344306 -0.130048133 
165000000.0 -0.046875160 -0.130686788  0.932165411 -0.334352103  0.932165411 -0.334352103 -0.046875160 -0.130686788 
166000000.0 -0.047408401 -0.131322812  0.931372656 -0.336231673  0.931372656 -0.336231673 -0.047408401 -0.131322812 
167000000.0 -0.047944018 -0.131956194  0.930575843 -0.338108760  0.930575843 -0.338108760 -0.047944018 -0.131956194 
